T024C 2088:893 SEGGER J-Link V4.80f Log File (0001ms, 10006ms total)
T024C 2088:893 DLL Compiled: Feb  5 2014 10:36:54 (0001ms, 10006ms total)
T024C 2088:893 Logging started @ 2014-03-02 16:05 (0001ms, 10006ms total)
T024C 2088:894 JLINK_ExecCommand("Device = AT91SAM3X8E", ...)Device "ATSAM3X8E" selected (512 KB flash, 64 KB RAM).  returns 0x00 (0001ms, 10007ms total)
T024C 2088:896 JLINK_TIF_Select(JLINKARM_TIF_JTAG)  returns 0x00 (0046ms, 10053ms total)
T024C 2088:942 JLINK_GetIdData(...) >0x2F8 JTAG>TotalIRLen = 4, IRPrint = 0x01 >0x30 JTAG> >0x210 JTAG> >0x70 JTAG> >0x40 JTAG> >0x40 JTAG> >0x40 JTAG> >0x48 JTAG> >0x78 JTAG> >0x40 JTAG> >0x30 JTAG> >0x40 JTAG> >0x40 JTAG> >0x30 JTAG> >0x40 JTAG> >0x48 JTAG>Found Cortex-M3 r2p0, Little endian. -- CPU_WriteMem(4 bytes @ 0xE0002000) -- CPU_ReadMem(4 bytes @ 0xE000EDF0) -- CPU_WriteMem(4 bytes @ 0xE000EDF0) -- CPU_ReadMem(4 bytes @ 0xE0002000)FPUnit: 6 code (BP) slots and 2 literal slots
 -- CPU_ReadMem(4 bytes @ 0xE000EDFC) -- CPU_WriteMem(4 bytes @ 0xE000EDFC) -- CPU_ReadMem(4 bytes @ 0xE0001000) -- CPU_WriteMem(4 bytes @ 0xE0001000) -- CPU_ReadMem(4 bytes @ 0xE00FF010)TPIU fitted. -- CPU_ReadMem(4 bytes @ 0xE00FF014) -- CPU_ReadMem(4 bytes @ 0xE00FF018) ScanLen=4 NumDevices=1 aId[0]=0x4BA00477 aIrRead[0]=0 aScanLen[0]=0 aScanRead[0]=0 (0064ms, 10117ms total)
T024C 2089:006 JLINK_ConfigJTAG(IRPre = 0, DRPre = 0) (0000ms, 10117ms total)
T024C 2089:006 JLINK_SetSpeed(1000) (0001ms, 10118ms total)
T024C 2089:007 JLINK_Connect() >0x2F8 JTAG>TotalIRLen = 4, IRPrint = 0x01 >0x30 JTAG> >0x210 JTAG> >0x70 JTAG> >0x40 JTAG> >0x40 JTAG> >0x40 JTAG> >0x48 JTAG> >0x78 JTAG> >0x40 JTAG> >0x30 JTAG> >0x40 JTAG> >0x40 JTAG> >0x30 JTAG> >0x40 JTAG> >0x48 JTAG>Found Cortex-M3 r2p0, Little endian. -- CPU_WriteMem(4 bytes @ 0xE0002000) -- CPU_ReadMem(4 bytes @ 0xE000EDF0) -- CPU_ReadMem(4 bytes @ 0xE0002000)FPUnit: 6 code (BP) slots and 2 literal slots -- CPU_ReadMem(4 bytes @ 0xE000EDFC)
 -- CPU_ReadMem(4 bytes @ 0xE0001000) -- CPU_WriteMem(4 bytes @ 0xE0001000) -- CPU_ReadMem(4 bytes @ 0xE00FF010)TPIU fitted. -- CPU_ReadMem(4 bytes @ 0xE00FF014) -- CPU_ReadMem(4 bytes @ 0xE00FF018)  returns 0x00 (0057ms, 10175ms total)
T024C 2089:064 JLINK_GetDebugInfo(0x100) -- Value=0xE00FF003  returns 0x00 (0002ms, 10177ms total)
T024C 2089:066 JLINK_ReadMemU8(0xE00FFFF0, 0x0001 Items, ...) -- CPU is running -- CPU_ReadMem(1 bytes @ 0xE00FFFF0) -- Data:  0D  returns 0x01 (0002ms, 10179ms total)
T024C 2089:068 JLINK_ReadMemU8(0xE00FFFF4, 0x0001 Items, ...) -- CPU is running -- CPU_ReadMem(1 bytes @ 0xE00FFFF4) -- Data:  10  returns 0x01 (0003ms, 10182ms total)
T024C 2089:071 JLINK_ReadMemU8(0xE00FFFF8, 0x0001 Items, ...) -- CPU is running -- CPU_ReadMem(1 bytes @ 0xE00FFFF8) -- Data:  05  returns 0x01 (0003ms, 10185ms total)
T024C 2089:074 JLINK_ReadMemU8(0xE00FFFFC, 0x0001 Items, ...) -- CPU is running -- CPU_ReadMem(1 bytes @ 0xE00FFFFC) -- Data:  B1  returns 0x01 (0001ms, 10186ms total)
T024C 2089:075 JLINK_ReadMemU8(0xE00FFFD0, 0x0001 Items, ...) -- CPU is running -- CPU_ReadMem(1 bytes @ 0xE00FFFD0) -- Data:  00  returns 0x01 (0002ms, 10188ms total)
T024C 2089:077 JLINK_ReadMemU8(0xE00FFFD4, 0x0001 Items, ...) -- CPU is running -- CPU_ReadMem(1 bytes @ 0xE00FFFD4) -- Data:  00  returns 0x01 (0002ms, 10190ms total)
T024C 2089:079 JLINK_ReadMemU8(0xE00FFFD8, 0x0001 Items, ...) -- CPU is running -- CPU_ReadMem(1 bytes @ 0xE00FFFD8) -- Data:  00  returns 0x01 (0003ms, 10193ms total)
T024C 2089:082 JLINK_ReadMemU8(0xE00FFFDC, 0x0001 Items, ...) -- CPU is running -- CPU_ReadMem(1 bytes @ 0xE00FFFDC) -- Data:  00  returns 0x01 (0001ms, 10194ms total)
T024C 2089:083 JLINK_ReadMemU8(0xE00FFFE0, 0x0001 Items, ...) -- CPU is running -- CPU_ReadMem(1 bytes @ 0xE00FFFE0) -- Data:  00  returns 0x01 (0002ms, 10196ms total)
T024C 2089:085 JLINK_ReadMemU8(0xE00FFFE4, 0x0001 Items, ...) -- CPU is running -- CPU_ReadMem(1 bytes @ 0xE00FFFE4) -- Data:  00  returns 0x01 (0002ms, 10198ms total)
T024C 2089:087 JLINK_ReadMemU8(0xE00FFFE8, 0x0001 Items, ...) -- CPU is running -- CPU_ReadMem(1 bytes @ 0xE00FFFE8) -- Data:  00  returns 0x01 (0002ms, 10200ms total)
T024C 2089:089 JLINK_ReadMemU8(0xE00FFFEC, 0x0001 Items, ...) -- CPU is running -- CPU_ReadMem(1 bytes @ 0xE00FFFEC) -- Data:  00  returns 0x01 (0002ms, 10202ms total)
T024C 2089:091 JLINK_ReadMemU32(0xE00FF000, 0x0001 Items, ...) -- CPU is running -- CPU_ReadMem(4 bytes @ 0xE00FF000) -- Data:  03 F0 F0 FF  returns 0x01 (0002ms, 10204ms total)
T024C 2089:093 JLINK_ReadMemU8(0xE000EFF0, 0x0001 Items, ...) -- CPU is running -- CPU_ReadMem(1 bytes @ 0xE000EFF0) -- Data:  0D  returns 0x01 (0002ms, 10206ms total)
T024C 2089:095 JLINK_ReadMemU8(0xE000EFF4, 0x0001 Items, ...) -- CPU is running -- CPU_ReadMem(1 bytes @ 0xE000EFF4) -- Data:  E0  returns 0x01 (0002ms, 10208ms total)
T024C 2089:097 JLINK_ReadMemU8(0xE000EFF8, 0x0001 Items, ...) -- CPU is running -- CPU_ReadMem(1 bytes @ 0xE000EFF8) -- Data:  05  returns 0x01 (0003ms, 10211ms total)
T024C 2089:100 JLINK_ReadMemU8(0xE000EFFC, 0x0001 Items, ...) -- CPU is running -- CPU_ReadMem(1 bytes @ 0xE000EFFC) -- Data:  B1  returns 0x01 (0002ms, 10213ms total)
T024C 2089:102 JLINK_ReadMemU8(0xE000EFD0, 0x0001 Items, ...) -- CPU is running -- CPU_ReadMem(1 bytes @ 0xE000EFD0) -- Data:  04  returns 0x01 (0001ms, 10214ms total)
T024C 2089:103 JLINK_ReadMemU8(0xE000EFD4, 0x0001 Items, ...) -- CPU is running -- CPU_ReadMem(1 bytes @ 0xE000EFD4) -- Data:  00  returns 0x01 (0003ms, 10217ms total)
T024C 2089:106 JLINK_ReadMemU8(0xE000EFD8, 0x0001 Items, ...) -- CPU is running -- CPU_ReadMem(1 bytes @ 0xE000EFD8) -- Data:  00  returns 0x01 (0001ms, 10218ms total)
T024C 2089:107 JLINK_ReadMemU8(0xE000EFDC, 0x0001 Items, ...) -- CPU is running -- CPU_ReadMem(1 bytes @ 0xE000EFDC) -- Data:  00  returns 0x01 (0003ms, 10221ms total)
T024C 2089:110 JLINK_ReadMemU8(0xE000EFE0, 0x0001 Items, ...) -- CPU is running -- CPU_ReadMem(1 bytes @ 0xE000EFE0) -- Data:  00  returns 0x01 (0002ms, 10223ms total)
T024C 2089:112 JLINK_ReadMemU8(0xE000EFE4, 0x0001 Items, ...) -- CPU is running -- CPU_ReadMem(1 bytes @ 0xE000EFE4) -- Data:  B0  returns 0x01 (0002ms, 10225ms total)
T024C 2089:114 JLINK_ReadMemU8(0xE000EFE8, 0x0001 Items, ...) -- CPU is running -- CPU_ReadMem(1 bytes @ 0xE000EFE8) -- Data:  2B  returns 0x01 (0002ms, 10227ms total)
T024C 2089:116 JLINK_ReadMemU8(0xE000EFEC, 0x0001 Items, ...) -- CPU is running -- CPU_ReadMem(1 bytes @ 0xE000EFEC) -- Data:  00  returns 0x01 (0002ms, 10229ms total)
T024C 2089:118 JLINK_ReadMemU32(0xE00FF004, 0x0001 Items, ...) -- CPU is running -- CPU_ReadMem(4 bytes @ 0xE00FF004) -- Data:  03 20 F0 FF  returns 0x01 (0002ms, 10231ms total)
T024C 2089:120 JLINK_ReadMemU8(0xE0001FF0, 0x0001 Items, ...) -- CPU is running -- CPU_ReadMem(1 bytes @ 0xE0001FF0) -- Data:  0D  returns 0x01 (0002ms, 10233ms total)
T024C 2089:122 JLINK_ReadMemU8(0xE0001FF4, 0x0001 Items, ...) -- CPU is running -- CPU_ReadMem(1 bytes @ 0xE0001FF4) -- Data:  E0  returns 0x01 (0003ms, 10236ms total)
T024C 2089:125 JLINK_ReadMemU8(0xE0001FF8, 0x0001 Items, ...) -- CPU is running -- CPU_ReadMem(1 bytes @ 0xE0001FF8) -- Data:  05  returns 0x01 (0002ms, 10238ms total)
T024C 2089:127 JLINK_ReadMemU8(0xE0001FFC, 0x0001 Items, ...) -- CPU is running -- CPU_ReadMem(1 bytes @ 0xE0001FFC) -- Data:  B1  returns 0x01 (0002ms, 10240ms total)
T024C 2089:129 JLINK_ReadMemU8(0xE0001FD0, 0x0001 Items, ...) -- CPU is running -- CPU_ReadMem(1 bytes @ 0xE0001FD0) -- Data:  04  returns 0x01 (0002ms, 10242ms total)
T024C 2089:131 JLINK_ReadMemU8(0xE0001FD4, 0x0001 Items, ...) -- CPU is running -- CPU_ReadMem(1 bytes @ 0xE0001FD4) -- Data:  00  returns 0x01 (0002ms, 10244ms total)
T024C 2089:133 JLINK_ReadMemU8(0xE0001FD8, 0x0001 Items, ...) -- CPU is running -- CPU_ReadMem(1 bytes @ 0xE0001FD8) -- Data:  00  returns 0x01 (0002ms, 10246ms total)
T024C 2089:135 JLINK_ReadMemU8(0xE0001FDC, 0x0001 Items, ...) -- CPU is running -- CPU_ReadMem(1 bytes @ 0xE0001FDC) -- Data:  00  returns 0x01 (0002ms, 10248ms total)
T024C 2089:137 JLINK_ReadMemU8(0xE0001FE0, 0x0001 Items, ...) -- CPU is running -- CPU_ReadMem(1 bytes @ 0xE0001FE0) -- Data:  02  returns 0x01 (0002ms, 10250ms total)
T024C 2089:139 JLINK_ReadMemU8(0xE0001FE4, 0x0001 Items, ...) -- CPU is running -- CPU_ReadMem(1 bytes @ 0xE0001FE4) -- Data:  B0  returns 0x01 (0006ms, 10256ms total)
T024C 2089:145 JLINK_ReadMemU8(0xE0001FE8, 0x0001 Items, ...) -- CPU is running -- CPU_ReadMem(1 bytes @ 0xE0001FE8) -- Data:  2B  returns 0x01 (0002ms, 10258ms total)
T024C 2089:147 JLINK_ReadMemU8(0xE0001FEC, 0x0001 Items, ...) -- CPU is running -- CPU_ReadMem(1 bytes @ 0xE0001FEC) -- Data:  00  returns 0x01 (0002ms, 10260ms total)
T024C 2089:149 JLINK_ReadMemU32(0xE00FF008, 0x0001 Items, ...) -- CPU is running -- CPU_ReadMem(4 bytes @ 0xE00FF008) -- Data:  03 30 F0 FF  returns 0x01 (0002ms, 10262ms total)
T024C 2089:151 JLINK_ReadMemU8(0xE0002FF0, 0x0001 Items, ...) -- CPU is running -- CPU_ReadMem(1 bytes @ 0xE0002FF0) -- Data:  0D  returns 0x01 (0002ms, 10264ms total)
T024C 2089:153 JLINK_ReadMemU8(0xE0002FF4, 0x0001 Items, ...) -- CPU is running -- CPU_ReadMem(1 bytes @ 0xE0002FF4) -- Data:  E0  returns 0x01 (0002ms, 10266ms total)
T024C 2089:155 JLINK_ReadMemU8(0xE0002FF8, 0x0001 Items, ...) -- CPU is running -- CPU_ReadMem(1 bytes @ 0xE0002FF8) -- Data:  05  returns 0x01 (0002ms, 10268ms total)
T024C 2089:157 JLINK_ReadMemU8(0xE0002FFC, 0x0001 Items, ...) -- CPU is running -- CPU_ReadMem(1 bytes @ 0xE0002FFC) -- Data:  B1  returns 0x01 (0002ms, 10270ms total)
T024C 2089:159 JLINK_ReadMemU8(0xE0002FD0, 0x0001 Items, ...) -- CPU is running -- CPU_ReadMem(1 bytes @ 0xE0002FD0) -- Data:  04  returns 0x01 (0002ms, 10272ms total)
T024C 2089:161 JLINK_ReadMemU8(0xE0002FD4, 0x0001 Items, ...) -- CPU is running -- CPU_ReadMem(1 bytes @ 0xE0002FD4) -- Data:  00  returns 0x01 (0002ms, 10274ms total)
T024C 2089:163 JLINK_ReadMemU8(0xE0002FD8, 0x0001 Items, ...) -- CPU is running -- CPU_ReadMem(1 bytes @ 0xE0002FD8) -- Data:  00  returns 0x01 (0002ms, 10276ms total)
T024C 2089:165 JLINK_ReadMemU8(0xE0002FDC, 0x0001 Items, ...) -- CPU is running -- CPU_ReadMem(1 bytes @ 0xE0002FDC) -- Data:  00  returns 0x01 (0003ms, 10279ms total)
T024C 2089:168 JLINK_ReadMemU8(0xE0002FE0, 0x0001 Items, ...) -- CPU is running -- CPU_ReadMem(1 bytes @ 0xE0002FE0) -- Data:  03  returns 0x01 (0002ms, 10281ms total)
T024C 2089:170 JLINK_ReadMemU8(0xE0002FE4, 0x0001 Items, ...) -- CPU is running -- CPU_ReadMem(1 bytes @ 0xE0002FE4) -- Data:  B0  returns 0x01 (0002ms, 10283ms total)
T024C 2089:172 JLINK_ReadMemU8(0xE0002FE8, 0x0001 Items, ...) -- CPU is running -- CPU_ReadMem(1 bytes @ 0xE0002FE8) -- Data:  2B  returns 0x01 (0003ms, 10286ms total)
T024C 2089:175 JLINK_ReadMemU8(0xE0002FEC, 0x0001 Items, ...) -- CPU is running -- CPU_ReadMem(1 bytes @ 0xE0002FEC) -- Data:  00  returns 0x01 (0002ms, 10288ms total)
T024C 2089:177 JLINK_ReadMemU32(0xE00FF00C, 0x0001 Items, ...) -- CPU is running -- CPU_ReadMem(4 bytes @ 0xE00FF00C) -- Data:  03 10 F0 FF  returns 0x01 (0002ms, 10290ms total)
T024C 2089:179 JLINK_ReadMemU8(0xE0000FF0, 0x0001 Items, ...) -- CPU is running -- CPU_ReadMem(1 bytes @ 0xE0000FF0) -- Data:  0D  returns 0x01 (0002ms, 10292ms total)
T024C 2089:181 JLINK_ReadMemU8(0xE0000FF4, 0x0001 Items, ...) -- CPU is running -- CPU_ReadMem(1 bytes @ 0xE0000FF4) -- Data:  E0  returns 0x01 (0002ms, 10294ms total)
T024C 2089:183 JLINK_ReadMemU8(0xE0000FF8, 0x0001 Items, ...) -- CPU is running -- CPU_ReadMem(1 bytes @ 0xE0000FF8) -- Data:  05  returns 0x01 (0002ms, 10296ms total)
T024C 2089:185 JLINK_ReadMemU8(0xE0000FFC, 0x0001 Items, ...) -- CPU is running -- CPU_ReadMem(1 bytes @ 0xE0000FFC) -- Data:  B1  returns 0x01 (0002ms, 10298ms total)
T024C 2089:187 JLINK_ReadMemU8(0xE0000FD0, 0x0001 Items, ...) -- CPU is running -- CPU_ReadMem(1 bytes @ 0xE0000FD0) -- Data:  04  returns 0x01 (0002ms, 10300ms total)
T024C 2089:189 JLINK_ReadMemU8(0xE0000FD4, 0x0001 Items, ...) -- CPU is running -- CPU_ReadMem(1 bytes @ 0xE0000FD4) -- Data:  00  returns 0x01 (0002ms, 10302ms total)
T024C 2089:191 JLINK_ReadMemU8(0xE0000FD8, 0x0001 Items, ...) -- CPU is running -- CPU_ReadMem(1 bytes @ 0xE0000FD8) -- Data:  00  returns 0x01 (0002ms, 10304ms total)
T024C 2089:193 JLINK_ReadMemU8(0xE0000FDC, 0x0001 Items, ...) -- CPU is running -- CPU_ReadMem(1 bytes @ 0xE0000FDC) -- Data:  00  returns 0x01 (0002ms, 10306ms total)
T024C 2089:195 JLINK_ReadMemU8(0xE0000FE0, 0x0001 Items, ...) -- CPU is running -- CPU_ReadMem(1 bytes @ 0xE0000FE0) -- Data:  01  returns 0x01 (0003ms, 10309ms total)
T024C 2089:198 JLINK_ReadMemU8(0xE0000FE4, 0x0001 Items, ...) -- CPU is running -- CPU_ReadMem(1 bytes @ 0xE0000FE4) -- Data:  B0  returns 0x01 (0003ms, 10312ms total)
T024C 2089:201 JLINK_ReadMemU8(0xE0000FE8, 0x0001 Items, ...) -- CPU is running -- CPU_ReadMem(1 bytes @ 0xE0000FE8) -- Data:  2B  returns 0x01 (0002ms, 10314ms total)
T024C 2089:203 JLINK_ReadMemU8(0xE0000FEC, 0x0001 Items, ...) -- CPU is running -- CPU_ReadMem(1 bytes @ 0xE0000FEC) -- Data:  00  returns 0x01 (0002ms, 10316ms total)
T024C 2089:205 JLINK_ReadMemU32(0xE00FF010, 0x0001 Items, ...) -- CPU is running -- CPU_ReadMem(4 bytes @ 0xE00FF010) -- Data:  03 10 F4 FF  returns 0x01 (0002ms, 10318ms total)
T024C 2089:207 JLINK_ReadMemU8(0xE0040FF0, 0x0001 Items, ...) -- CPU is running -- CPU_ReadMem(1 bytes @ 0xE0040FF0) -- Data:  0D  returns 0x01 (0002ms, 10320ms total)
T024C 2089:209 JLINK_ReadMemU8(0xE0040FF4, 0x0001 Items, ...) -- CPU is running -- CPU_ReadMem(1 bytes @ 0xE0040FF4) -- Data:  90  returns 0x01 (0002ms, 10322ms total)
T024C 2089:211 JLINK_ReadMemU8(0xE0040FF8, 0x0001 Items, ...) -- CPU is running -- CPU_ReadMem(1 bytes @ 0xE0040FF8) -- Data:  05  returns 0x01 (0002ms, 10324ms total)
T024C 2089:213 JLINK_ReadMemU8(0xE0040FFC, 0x0001 Items, ...) -- CPU is running -- CPU_ReadMem(1 bytes @ 0xE0040FFC) -- Data:  B1  returns 0x01 (0002ms, 10326ms total)
T024C 2089:215 JLINK_ReadMemU8(0xE0040FD0, 0x0001 Items, ...) -- CPU is running -- CPU_ReadMem(1 bytes @ 0xE0040FD0) -- Data:  04  returns 0x01 (0002ms, 10328ms total)
T024C 2089:217 JLINK_ReadMemU8(0xE0040FD4, 0x0001 Items, ...) -- CPU is running -- CPU_ReadMem(1 bytes @ 0xE0040FD4) -- Data:  00  returns 0x01 (0002ms, 10330ms total)
T024C 2089:219 JLINK_ReadMemU8(0xE0040FD8, 0x0001 Items, ...) -- CPU is running -- CPU_ReadMem(1 bytes @ 0xE0040FD8) -- Data:  00  returns 0x01 (0002ms, 10332ms total)
T024C 2089:221 JLINK_ReadMemU8(0xE0040FDC, 0x0001 Items, ...) -- CPU is running -- CPU_ReadMem(1 bytes @ 0xE0040FDC) -- Data:  00  returns 0x01 (0002ms, 10334ms total)
T024C 2089:223 JLINK_ReadMemU8(0xE0040FE0, 0x0001 Items, ...) -- CPU is running -- CPU_ReadMem(1 bytes @ 0xE0040FE0) -- Data:  23  returns 0x01 (0002ms, 10336ms total)
T024C 2089:225 JLINK_ReadMemU8(0xE0040FE4, 0x0001 Items, ...) -- CPU is running -- CPU_ReadMem(1 bytes @ 0xE0040FE4) -- Data:  B9  returns 0x01 (0003ms, 10339ms total)
T024C 2089:228 JLINK_ReadMemU8(0xE0040FE8, 0x0001 Items, ...) -- CPU is running -- CPU_ReadMem(1 bytes @ 0xE0040FE8) -- Data:  2B  returns 0x01 (0002ms, 10341ms total)
T024C 2089:230 JLINK_ReadMemU8(0xE0040FEC, 0x0001 Items, ...) -- CPU is running -- CPU_ReadMem(1 bytes @ 0xE0040FEC) -- Data:  00  returns 0x01 (0001ms, 10342ms total)
T024C 2089:231 JLINK_ReadMemU32(0xE00FF014, 0x0001 Items, ...) -- CPU is running -- CPU_ReadMem(4 bytes @ 0xE00FF014) -- Data:  02 20 F4 FF  returns 0x01 (0003ms, 10345ms total)
T024C 2089:234 JLINK_ReadMemU32(0xE00FF018, 0x0001 Items, ...) -- CPU is running -- CPU_ReadMem(4 bytes @ 0xE00FF018) -- Data:  00 00 00 00  returns 0x01 (0002ms, 10347ms total)
T024C 2089:236 JLINK_ReadMem (0xE0001000, 0x0004 Bytes, ...) -- CPU is running -- CPU_ReadMem(4 bytes @ 0xE0001000) -- Data:  01 00 00 40  returns 0x00 (0003ms, 10350ms total)
T024C 2089:239 JLINK_ReadMem (0xE0001000, 0x0004 Bytes, ...) -- CPU is running -- CPU_ReadMem(4 bytes @ 0xE0001000) -- Data:  01 00 00 40  returns 0x00 (0001ms, 10351ms total)
T024C 2089:240 JLINK_ReadMem (0xE0001028, 0x0004 Bytes, ...) -- CPU is running -- CPU_ReadMem(4 bytes @ 0xE0001028) -- Data:  00 00 00 00  returns 0x00 (0002ms, 10353ms total)
T024C 2089:242 JLINK_WriteMem(0xE0001028, 0x0004 Bytes, ...) -- Data:  00 01 00 00 -- CPU is running -- CPU_WriteMem(4 bytes @ 0xE0001028)  returns 0x04 (0004ms, 10357ms total)
T024C 2089:246 JLINK_ReadMem (0xE0001028, 0x0004 Bytes, ...) -- CPU is running -- CPU_ReadMem(4 bytes @ 0xE0001028) -- Data:  00 00 00 00  returns 0x00 (0002ms, 10359ms total)
T024C 2089:248 JLINK_ReadMem (0xE0001038, 0x0004 Bytes, ...) -- CPU is running -- CPU_ReadMem(4 bytes @ 0xE0001038) -- Data:  00 02 00 00  returns 0x00 (0002ms, 10361ms total)
T024C 2089:250 JLINK_WriteMem(0xE0001038, 0x0004 Bytes, ...) -- Data:  00 03 00 00 -- CPU is running -- CPU_WriteMem(4 bytes @ 0xE0001038)  returns 0x04 (0001ms, 10362ms total)
T024C 2089:251 JLINK_ReadMem (0xE0001038, 0x0004 Bytes, ...) -- CPU is running -- CPU_ReadMem(4 bytes @ 0xE0001038) -- Data:  00 03 00 00  returns 0x00 (0002ms, 10364ms total)
T024C 2089:253 JLINK_ReadMem (0xE0001048, 0x0004 Bytes, ...) -- CPU is running -- CPU_ReadMem(4 bytes @ 0xE0001048) -- Data:  00 00 00 00  returns 0x00 (0002ms, 10366ms total)
T024C 2089:255 JLINK_WriteMem(0xE0001048, 0x0004 Bytes, ...) -- Data:  00 01 00 00 -- CPU is running -- CPU_WriteMem(4 bytes @ 0xE0001048)  returns 0x04 (0003ms, 10369ms total)
T024C 2089:258 JLINK_ReadMem (0xE0001048, 0x0004 Bytes, ...) -- CPU is running -- CPU_ReadMem(4 bytes @ 0xE0001048) -- Data:  00 00 00 00  returns 0x00 (0002ms, 10371ms total)
T024C 2089:260 JLINK_ReadMem (0xE0001058, 0x0004 Bytes, ...) -- CPU is running -- CPU_ReadMem(4 bytes @ 0xE0001058) -- Data:  00 00 00 00  returns 0x00 (0002ms, 10373ms total)
T024C 2089:262 JLINK_WriteMem(0xE0001058, 0x0004 Bytes, ...) -- Data:  00 01 00 00 -- CPU is running -- CPU_WriteMem(4 bytes @ 0xE0001058)  returns 0x04 (0003ms, 10376ms total)
T024C 2089:265 JLINK_ReadMem (0xE0001058, 0x0004 Bytes, ...) -- CPU is running -- CPU_ReadMem(4 bytes @ 0xE0001058) -- Data:  00 00 00 00  returns 0x00 (0002ms, 10378ms total)
T024C 2089:267 JLINK_ReadMem (0xE0001024, 0x0004 Bytes, ...) -- CPU is running -- CPU_ReadMem(4 bytes @ 0xE0001024) -- Data:  08 00 00 00  returns 0x00 (0001ms, 10379ms total)
T024C 2089:268 JLINK_WriteMem(0xE0001024, 0x0004 Bytes, ...) -- Data:  1F 00 00 00 -- CPU is running -- CPU_WriteMem(4 bytes @ 0xE0001024)  returns 0x04 (0002ms, 10381ms total)
T024C 2089:270 JLINK_ReadMem (0xE0001024, 0x0004 Bytes, ...) -- CPU is running -- CPU_ReadMem(4 bytes @ 0xE0001024) -- Data:  0F 00 00 00  returns 0x00 (0002ms, 10383ms total)
T024C 2089:272 JLINK_ReadMem (0xE0001034, 0x0004 Bytes, ...) -- CPU is running -- CPU_ReadMem(4 bytes @ 0xE0001034) -- Data:  08 00 00 00  returns 0x00 (0003ms, 10386ms total)
T024C 2089:275 JLINK_WriteMem(0xE0001034, 0x0004 Bytes, ...) -- Data:  1F 00 00 00 -- CPU is running -- CPU_WriteMem(4 bytes @ 0xE0001034)  returns 0x04 (0002ms, 10388ms total)
T024C 2089:277 JLINK_ReadMem (0xE0001034, 0x0004 Bytes, ...) -- CPU is running -- CPU_ReadMem(4 bytes @ 0xE0001034) -- Data:  0F 00 00 00  returns 0x00 (0002ms, 10390ms total)
T024C 2089:279 JLINK_ReadMem (0xE0001044, 0x0004 Bytes, ...) -- CPU is running -- CPU_ReadMem(4 bytes @ 0xE0001044) -- Data:  00 00 00 00  returns 0x00 (0002ms, 10392ms total)
T024C 2089:281 JLINK_WriteMem(0xE0001044, 0x0004 Bytes, ...) -- Data:  1F 00 00 00 -- CPU is running -- CPU_WriteMem(4 bytes @ 0xE0001044)  returns 0x04 (0002ms, 10394ms total)
T024C 2089:283 JLINK_ReadMem (0xE0001044, 0x0004 Bytes, ...) -- CPU is running -- CPU_ReadMem(4 bytes @ 0xE0001044) -- Data:  0F 00 00 00  returns 0x00 (0002ms, 10396ms total)
T024C 2089:285 JLINK_ReadMem (0xE0001054, 0x0004 Bytes, ...) -- CPU is running -- CPU_ReadMem(4 bytes @ 0xE0001054) -- Data:  02 00 00 00  returns 0x00 (0002ms, 10398ms total)
T024C 2089:287 JLINK_WriteMem(0xE0001054, 0x0004 Bytes, ...) -- Data:  1F 00 00 00 -- CPU is running -- CPU_WriteMem(4 bytes @ 0xE0001054)  returns 0x04 (0002ms, 10400ms total)
T024C 2089:289 JLINK_ReadMem (0xE0001054, 0x0004 Bytes, ...) -- CPU is running -- CPU_ReadMem(4 bytes @ 0xE0001054) -- Data:  0F 00 00 00  returns 0x00 (0003ms, 10403ms total)
T024C 2089:292 JLINK_ReadMem (0xE0001028, 0x0004 Bytes, ...) -- CPU is running -- CPU_ReadMem(4 bytes @ 0xE0001028) -- Data:  00 00 00 00  returns 0x00 (0002ms, 10405ms total)
T024C 2089:294 JLINK_ReadMem (0xE0001038, 0x0004 Bytes, ...) -- CPU is running -- CPU_ReadMem(4 bytes @ 0xE0001038) -- Data:  00 03 00 00  returns 0x00 (0003ms, 10408ms total)
T024C 2089:297 JLINK_ReadMem (0xE0001048, 0x0004 Bytes, ...) -- CPU is running -- CPU_ReadMem(4 bytes @ 0xE0001048) -- Data:  00 00 00 00  returns 0x00 (0001ms, 10409ms total)
T024C 2089:298 JLINK_ReadMem (0xE0001058, 0x0004 Bytes, ...) -- CPU is running -- CPU_ReadMem(4 bytes @ 0xE0001058) -- Data:  00 00 00 00  returns 0x00 (0002ms, 10411ms total)
T024C 2089:300 JLINK_WriteMem(0xE0001020, 0x0004 Bytes, ...) -- Data:  00 00 00 00 -- CPU is running -- CPU_WriteMem(4 bytes @ 0xE0001020)  returns 0x04 (0002ms, 10413ms total)
T024C 2089:302 JLINK_WriteMem(0xE0001024, 0x0004 Bytes, ...) -- Data:  00 00 00 00 -- CPU is running -- CPU_WriteMem(4 bytes @ 0xE0001024)  returns 0x04 (0003ms, 10416ms total)
T024C 2089:305 JLINK_WriteMem(0xE0001028, 0x0004 Bytes, ...) -- Data:  00 00 00 00 -- CPU is running -- CPU_WriteMem(4 bytes @ 0xE0001028)  returns 0x04 (0002ms, 10418ms total)
T024C 2089:307 JLINK_WriteMem(0xE0001030, 0x0004 Bytes, ...) -- Data:  00 00 00 00 -- CPU is running -- CPU_WriteMem(4 bytes @ 0xE0001030)  returns 0x04 (0002ms, 10420ms total)
T024C 2089:309 JLINK_WriteMem(0xE0001034, 0x0004 Bytes, ...) -- Data:  00 00 00 00 -- CPU is running -- CPU_WriteMem(4 bytes @ 0xE0001034)  returns 0x04 (0002ms, 10422ms total)
T024C 2089:311 JLINK_WriteMem(0xE0001038, 0x0004 Bytes, ...) -- Data:  00 00 00 00 -- CPU is running -- CPU_WriteMem(4 bytes @ 0xE0001038)  returns 0x04 (0002ms, 10424ms total)
T024C 2089:313 JLINK_WriteMem(0xE0001040, 0x0004 Bytes, ...) -- Data:  00 00 00 00 -- CPU is running -- CPU_WriteMem(4 bytes @ 0xE0001040)  returns 0x04 (0002ms, 10426ms total)
T024C 2089:315 JLINK_WriteMem(0xE0001044, 0x0004 Bytes, ...) -- Data:  00 00 00 00 -- CPU is running -- CPU_WriteMem(4 bytes @ 0xE0001044)  returns 0x04 (0004ms, 10430ms total)
T024C 2089:319 JLINK_WriteMem(0xE0001048, 0x0004 Bytes, ...) -- Data:  00 00 00 00 -- CPU is running -- CPU_WriteMem(4 bytes @ 0xE0001048)  returns 0x04 (0001ms, 10431ms total)
T024C 2089:320 JLINK_WriteMem(0xE0001050, 0x0004 Bytes, ...) -- Data:  00 00 00 00 -- CPU is running -- CPU_WriteMem(4 bytes @ 0xE0001050)  returns 0x04 (0002ms, 10433ms total)
T024C 2089:322 JLINK_WriteMem(0xE0001054, 0x0004 Bytes, ...) -- Data:  00 00 00 00 -- CPU is running -- CPU_WriteMem(4 bytes @ 0xE0001054)  returns 0x04 (0003ms, 10436ms total)
T024C 2089:325 JLINK_WriteMem(0xE0001058, 0x0004 Bytes, ...) -- Data:  00 00 00 00 -- CPU is running -- CPU_WriteMem(4 bytes @ 0xE0001058)  returns 0x04 (0003ms, 10439ms total)
T024C 2089:328 JLINK_WriteVectorCatch(0x00000001) -- CPU is running -- CPU_ReadMem(4 bytes @ 0xE000EDFC) -- CPU is running -- CPU_WriteMem(4 bytes @ 0xE000EDFC)  returns 0x00 (0004ms, 10443ms total)
T024C 2089:332 JLINK_Reset() -- CPU_ReadMem(16 bytes @ 0x20000000) -- CPU_WriteMem(16 bytes @ 0x20000000) -- CPU_ReadMem(4 bytes @ 0xE000EDFC) -- CPU_WriteMem(4 bytes @ 0xE000EDFC) -- CPU_WriteMem(4 bytes @ 0xE000ED0C) -- CPU_ReadMem(4 bytes @ 0xE000EDF0) -- CPU_ReadMem(4 bytes @ 0xE000EDF0) -- CPU_WriteMem(4 bytes @ 0xE000EDFC) -- CPU_WriteMem(16 bytes @ 0x20000000) -- CPU_WriteMem(4 bytes @ 0xE0002000) -- CPU_ReadMem(4 bytes @ 0xE000EDFC) -- CPU_ReadMem(4 bytes @ 0xE0001000) (0076ms, 10519ms total)
T024C 2089:408 JLINK_BeginDownload(Flags = 0x00) (0000ms, 10519ms total)
T024C 2089:408 JLINK_JTAG_GetDeviceID(DeviceIndex = 0)  returns 0x4BA00477 (0000ms, 10519ms total)
T024C 2089:408 JLINK_ReadMemU32(0x400E0940, 0x0001 Items, ...) -- CPU_ReadMem(4 bytes @ 0x400E0940) -- Data:  60 0A 5E 28  returns 0x01 (0003ms, 10522ms total)
T024C 2089:411 JLINK_WriteMem(0x400E0A04, 0x0004 Bytes, ...) -- Data:  09 00 00 5A -- CPU_WriteMem(4 bytes @ 0x400E0A04)  returns 0x04 (0002ms, 10524ms total)
T024C 2089:413 JLINK_ReadMem (0x400E0A08, 0x0004 Bytes, ...) -- CPU_ReadMem(4 bytes @ 0x400E0A08) -- Data:  01 00 00 00  returns 0x00 (0002ms, 10526ms total)
T024C 2089:415 JLINK_WriteMem(0x400E0A04, 0x0004 Bytes, ...) -- Data:  09 40 00 5A -- CPU_WriteMem(4 bytes @ 0x400E0A04)  returns 0x04 (0002ms, 10528ms total)
T024C 2089:417 JLINK_ReadMem (0x400E0A08, 0x0004 Bytes, ...) -- CPU_ReadMem(4 bytes @ 0x400E0A08) -- Data:  01 00 00 00  returns 0x00 (0002ms, 10530ms total)
T024C 2089:419 JLINK_WriteMem(0x400E0A04, 0x0004 Bytes, ...) -- Data:  09 80 00 5A -- CPU_WriteMem(4 bytes @ 0x400E0A04)  returns 0x04 (0002ms, 10532ms total)
T024C 2089:421 JLINK_ReadMem (0x400E0A08, 0x0004 Bytes, ...) -- CPU_ReadMem(4 bytes @ 0x400E0A08) -- Data:  01 00 00 00  returns 0x00 (0003ms, 10535ms total)
T024C 2089:424 JLINK_WriteMem(0x400E0A04, 0x0004 Bytes, ...) -- Data:  09 C0 00 5A -- CPU_WriteMem(4 bytes @ 0x400E0A04)  returns 0x04 (0002ms, 10537ms total)
T024C 2089:426 JLINK_ReadMem (0x400E0A08, 0x0004 Bytes, ...) -- CPU_ReadMem(4 bytes @ 0x400E0A08) -- Data:  01 00 00 00  returns 0x00 (0002ms, 10539ms total)
T024C 2089:428 JLINK_WriteMem(0x400E0A04, 0x0004 Bytes, ...) -- Data:  09 00 01 5A -- CPU_WriteMem(4 bytes @ 0x400E0A04)  returns 0x04 (0002ms, 10541ms total)
T024C 2089:430 JLINK_ReadMem (0x400E0A08, 0x0004 Bytes, ...) -- CPU_ReadMem(4 bytes @ 0x400E0A08) -- Data:  01 00 00 00  returns 0x00 (0002ms, 10543ms total)
T024C 2089:432 JLINK_WriteMem(0x400E0A04, 0x0004 Bytes, ...) -- Data:  09 40 01 5A -- CPU_WriteMem(4 bytes @ 0x400E0A04)  returns 0x04 (0003ms, 10546ms total)
T024C 2089:435 JLINK_ReadMem (0x400E0A08, 0x0004 Bytes, ...) -- CPU_ReadMem(4 bytes @ 0x400E0A08) -- Data:  01 00 00 00  returns 0x00 (0001ms, 10547ms total)
T024C 2089:436 JLINK_WriteMem(0x400E0A04, 0x0004 Bytes, ...) -- Data:  09 80 01 5A -- CPU_WriteMem(4 bytes @ 0x400E0A04)  returns 0x04 (0002ms, 10549ms total)
T024C 2089:438 JLINK_ReadMem (0x400E0A08, 0x0004 Bytes, ...) -- CPU_ReadMem(4 bytes @ 0x400E0A08) -- Data:  01 00 00 00  returns 0x00 (0002ms, 10551ms total)
T024C 2089:440 JLINK_WriteMem(0x400E0A04, 0x0004 Bytes, ...) -- Data:  09 C0 01 5A -- CPU_WriteMem(4 bytes @ 0x400E0A04)  returns 0x04 (0002ms, 10553ms total)
T024C 2089:442 JLINK_ReadMem (0x400E0A08, 0x0004 Bytes, ...) -- CPU_ReadMem(4 bytes @ 0x400E0A08) -- Data:  01 00 00 00  returns 0x00 (0002ms, 10555ms total)
T024C 2089:444 JLINK_WriteMem(0x400E0A04, 0x0004 Bytes, ...) -- Data:  09 00 02 5A -- CPU_WriteMem(4 bytes @ 0x400E0A04)  returns 0x04 (0002ms, 10557ms total)
T024C 2089:446 JLINK_ReadMem (0x400E0A08, 0x0004 Bytes, ...) -- CPU_ReadMem(4 bytes @ 0x400E0A08) -- Data:  01 00 00 00  returns 0x00 (0002ms, 10559ms total)
T024C 2089:448 JLINK_WriteMem(0x400E0A04, 0x0004 Bytes, ...) -- Data:  09 40 02 5A -- CPU_WriteMem(4 bytes @ 0x400E0A04)  returns 0x04 (0002ms, 10561ms total)
T024C 2089:450 JLINK_ReadMem (0x400E0A08, 0x0004 Bytes, ...) -- CPU_ReadMem(4 bytes @ 0x400E0A08) -- Data:  01 00 00 00  returns 0x00 (0002ms, 10563ms total)
T024C 2089:452 JLINK_WriteMem(0x400E0A04, 0x0004 Bytes, ...) -- Data:  09 80 02 5A -- CPU_WriteMem(4 bytes @ 0x400E0A04)  returns 0x04 (0002ms, 10565ms total)
T024C 2089:454 JLINK_ReadMem (0x400E0A08, 0x0004 Bytes, ...) -- CPU_ReadMem(4 bytes @ 0x400E0A08) -- Data:  01 00 00 00  returns 0x00 (0002ms, 10567ms total)
T024C 2089:456 JLINK_WriteMem(0x400E0A04, 0x0004 Bytes, ...) -- Data:  09 C0 02 5A -- CPU_WriteMem(4 bytes @ 0x400E0A04)  returns 0x04 (0001ms, 10568ms total)
T024C 2089:457 JLINK_ReadMem (0x400E0A08, 0x0004 Bytes, ...) -- CPU_ReadMem(4 bytes @ 0x400E0A08) -- Data:  01 00 00 00  returns 0x00 (0004ms, 10572ms total)
T024C 2089:461 JLINK_WriteMem(0x400E0A04, 0x0004 Bytes, ...) -- Data:  09 00 03 5A -- CPU_WriteMem(4 bytes @ 0x400E0A04)  returns 0x04 (0002ms, 10574ms total)
T024C 2089:463 JLINK_ReadMem (0x400E0A08, 0x0004 Bytes, ...) -- CPU_ReadMem(4 bytes @ 0x400E0A08) -- Data:  01 00 00 00  returns 0x00 (0002ms, 10576ms total)
T024C 2089:465 JLINK_WriteMem(0x400E0A04, 0x0004 Bytes, ...) -- Data:  09 40 03 5A -- CPU_WriteMem(4 bytes @ 0x400E0A04)  returns 0x04 (0002ms, 10578ms total)
T024C 2089:467 JLINK_ReadMem (0x400E0A08, 0x0004 Bytes, ...) -- CPU_ReadMem(4 bytes @ 0x400E0A08) -- Data:  01 00 00 00  returns 0x00 (0002ms, 10580ms total)
T024C 2089:469 JLINK_WriteMem(0x400E0A04, 0x0004 Bytes, ...) -- Data:  09 80 03 5A -- CPU_WriteMem(4 bytes @ 0x400E0A04)  returns 0x04 (0001ms, 10581ms total)
T024C 2089:470 JLINK_ReadMem (0x400E0A08, 0x0004 Bytes, ...) -- CPU_ReadMem(4 bytes @ 0x400E0A08) -- Data:  01 00 00 00  returns 0x00 (0002ms, 10583ms total)
T024C 2089:472 JLINK_WriteMem(0x400E0A04, 0x0004 Bytes, ...) -- Data:  09 C0 03 5A -- CPU_WriteMem(4 bytes @ 0x400E0A04)  returns 0x04 (0002ms, 10585ms total)
T024C 2089:474 JLINK_ReadMem (0x400E0A08, 0x0004 Bytes, ...) -- CPU_ReadMem(4 bytes @ 0x400E0A08) -- Data:  01 00 00 00  returns 0x00 (0004ms, 10589ms total)
T024C 2089:478 JLINK_WriteMem(0x400E0A04, 0x0004 Bytes, ...) -- Data:  05 00 00 5A -- CPU_WriteMem(4 bytes @ 0x400E0A04)  returns 0x04 (0001ms, 10590ms total)
T024C 2089:479 JLINK_WriteMem(0x400E0C04, 0x0004 Bytes, ...) -- Data:  09 00 00 5A -- CPU_WriteMem(4 bytes @ 0x400E0C04)  returns 0x04 (0002ms, 10592ms total)
T024C 2089:481 JLINK_ReadMem (0x400E0C08, 0x0004 Bytes, ...) -- CPU_ReadMem(4 bytes @ 0x400E0C08) -- Data:  01 00 00 00  returns 0x00 (0002ms, 10594ms total)
T024C 2089:483 JLINK_WriteMem(0x400E0C04, 0x0004 Bytes, ...) -- Data:  09 40 00 5A -- CPU_WriteMem(4 bytes @ 0x400E0C04)  returns 0x04 (0002ms, 10596ms total)
T024C 2089:485 JLINK_ReadMem (0x400E0C08, 0x0004 Bytes, ...) -- CPU_ReadMem(4 bytes @ 0x400E0C08) -- Data:  01 00 00 00  returns 0x00 (0002ms, 10598ms total)
T024C 2089:487 JLINK_WriteMem(0x400E0C04, 0x0004 Bytes, ...) -- Data:  09 80 00 5A -- CPU_WriteMem(4 bytes @ 0x400E0C04)  returns 0x04 (0002ms, 10600ms total)
T024C 2089:489 JLINK_ReadMem (0x400E0C08, 0x0004 Bytes, ...) -- CPU_ReadMem(4 bytes @ 0x400E0C08) -- Data:  01 00 00 00  returns 0x00 (0002ms, 10602ms total)
T024C 2089:491 JLINK_WriteMem(0x400E0C04, 0x0004 Bytes, ...) -- Data:  09 C0 00 5A -- CPU_WriteMem(4 bytes @ 0x400E0C04)  returns 0x04 (0002ms, 10604ms total)
T024C 2089:493 JLINK_ReadMem (0x400E0C08, 0x0004 Bytes, ...) -- CPU_ReadMem(4 bytes @ 0x400E0C08) -- Data:  01 00 00 00  returns 0x00 (0004ms, 10608ms total)
T024C 2089:497 JLINK_WriteMem(0x400E0C04, 0x0004 Bytes, ...) -- Data:  09 00 01 5A -- CPU_WriteMem(4 bytes @ 0x400E0C04)  returns 0x04 (0002ms, 10610ms total)
T024C 2089:499 JLINK_ReadMem (0x400E0C08, 0x0004 Bytes, ...) -- CPU_ReadMem(4 bytes @ 0x400E0C08) -- Data:  01 00 00 00  returns 0x00 (0003ms, 10613ms total)
T024C 2089:502 JLINK_WriteMem(0x400E0C04, 0x0004 Bytes, ...) -- Data:  09 40 01 5A -- CPU_WriteMem(4 bytes @ 0x400E0C04)  returns 0x04 (0002ms, 10615ms total)
T024C 2089:504 JLINK_ReadMem (0x400E0C08, 0x0004 Bytes, ...) -- CPU_ReadMem(4 bytes @ 0x400E0C08) -- Data:  01 00 00 00  returns 0x00 (0002ms, 10617ms total)
T024C 2089:506 JLINK_WriteMem(0x400E0C04, 0x0004 Bytes, ...) -- Data:  09 80 01 5A -- CPU_WriteMem(4 bytes @ 0x400E0C04)  returns 0x04 (0002ms, 10619ms total)
T024C 2089:508 JLINK_ReadMem (0x400E0C08, 0x0004 Bytes, ...) -- CPU_ReadMem(4 bytes @ 0x400E0C08) -- Data:  01 00 00 00  returns 0x00 (0002ms, 10621ms total)
T024C 2089:510 JLINK_WriteMem(0x400E0C04, 0x0004 Bytes, ...) -- Data:  09 C0 01 5A -- CPU_WriteMem(4 bytes @ 0x400E0C04)  returns 0x04 (0002ms, 10623ms total)
T024C 2089:512 JLINK_ReadMem (0x400E0C08, 0x0004 Bytes, ...) -- CPU_ReadMem(4 bytes @ 0x400E0C08) -- Data:  01 00 00 00  returns 0x00 (0002ms, 10625ms total)
T024C 2089:514 JLINK_WriteMem(0x400E0C04, 0x0004 Bytes, ...) -- Data:  09 00 02 5A -- CPU_WriteMem(4 bytes @ 0x400E0C04)  returns 0x04 (0003ms, 10628ms total)
T024C 2089:517 JLINK_ReadMem (0x400E0C08, 0x0004 Bytes, ...) -- CPU_ReadMem(4 bytes @ 0x400E0C08) -- Data:  01 00 00 00  returns 0x00 (0002ms, 10630ms total)
T024C 2089:519 JLINK_WriteMem(0x400E0C04, 0x0004 Bytes, ...) -- Data:  09 40 02 5A -- CPU_WriteMem(4 bytes @ 0x400E0C04)  returns 0x04 (0003ms, 10633ms total)
T024C 2089:522 JLINK_ReadMem (0x400E0C08, 0x0004 Bytes, ...) -- CPU_ReadMem(4 bytes @ 0x400E0C08) -- Data:  01 00 00 00  returns 0x00 (0002ms, 10635ms total)
T024C 2089:524 JLINK_WriteMem(0x400E0C04, 0x0004 Bytes, ...) -- Data:  09 80 02 5A -- CPU_WriteMem(4 bytes @ 0x400E0C04)  returns 0x04 (0002ms, 10637ms total)
T024C 2089:526 JLINK_ReadMem (0x400E0C08, 0x0004 Bytes, ...) -- CPU_ReadMem(4 bytes @ 0x400E0C08) -- Data:  01 00 00 00  returns 0x00 (0003ms, 10640ms total)
T024C 2089:529 JLINK_WriteMem(0x400E0C04, 0x0004 Bytes, ...) -- Data:  09 C0 02 5A -- CPU_WriteMem(4 bytes @ 0x400E0C04)  returns 0x04 (0002ms, 10642ms total)
T024C 2089:531 JLINK_ReadMem (0x400E0C08, 0x0004 Bytes, ...) -- CPU_ReadMem(4 bytes @ 0x400E0C08) -- Data:  01 00 00 00  returns 0x00 (0002ms, 10644ms total)
T024C 2089:533 JLINK_WriteMem(0x400E0C04, 0x0004 Bytes, ...) -- Data:  09 00 03 5A -- CPU_WriteMem(4 bytes @ 0x400E0C04)  returns 0x04 (0002ms, 10646ms total)
T024C 2089:535 JLINK_ReadMem (0x400E0C08, 0x0004 Bytes, ...) -- CPU_ReadMem(4 bytes @ 0x400E0C08) -- Data:  01 00 00 00  returns 0x00 (0002ms, 10648ms total)
T024C 2089:537 JLINK_WriteMem(0x400E0C04, 0x0004 Bytes, ...) -- Data:  09 40 03 5A -- CPU_WriteMem(4 bytes @ 0x400E0C04)  returns 0x04 (0002ms, 10650ms total)
T024C 2089:539 JLINK_ReadMem (0x400E0C08, 0x0004 Bytes, ...) -- CPU_ReadMem(4 bytes @ 0x400E0C08) -- Data:  01 00 00 00  returns 0x00 (0002ms, 10652ms total)
T024C 2089:541 JLINK_WriteMem(0x400E0C04, 0x0004 Bytes, ...) -- Data:  09 80 03 5A -- CPU_WriteMem(4 bytes @ 0x400E0C04)  returns 0x04 (0002ms, 10654ms total)
T024C 2089:543 JLINK_ReadMem (0x400E0C08, 0x0004 Bytes, ...) -- CPU_ReadMem(4 bytes @ 0x400E0C08) -- Data:  01 00 00 00  returns 0x00 (0002ms, 10656ms total)
T024C 2089:545 JLINK_WriteMem(0x400E0C04, 0x0004 Bytes, ...) -- Data:  09 C0 03 5A -- CPU_WriteMem(4 bytes @ 0x400E0C04)  returns 0x04 (0002ms, 10658ms total)
T024C 2089:547 JLINK_ReadMem (0x400E0C08, 0x0004 Bytes, ...) -- CPU_ReadMem(4 bytes @ 0x400E0C08) -- Data:  01 00 00 00  returns 0x00 (0002ms, 10660ms total)
T024C 2089:549 JLINK_WriteMem(0x400E0C04, 0x0004 Bytes, ...) -- Data:  05 00 00 5A -- CPU_WriteMem(4 bytes @ 0x400E0C04)  returns 0x04 (0002ms, 10662ms total)
T024C 2089:551 JLINK_ReadMem (0x400E0A08, 0x0004 Bytes, ...) -- CPU_ReadMem(4 bytes @ 0x400E0A08) -- Data:  01 00 00 00  returns 0x00 (0002ms, 10664ms total)
T024C 2089:553 JLINK_ReadMem (0x400E0C08, 0x0004 Bytes, ...) -- CPU_ReadMem(4 bytes @ 0x400E0C08) -- Data:  00 00 00 00  returns 0x00 (0002ms, 10666ms total)
T024C 2089:705 JLINK_ReadMem (0x400E0C08, 0x0004 Bytes, ...) -- CPU_ReadMem(4 bytes @ 0x400E0C08) -- Data:  01 00 00 00  returns 0x00 (0003ms, 10669ms total)
T024C 2089:708 JLINK_EndDownload()  returns 0x00 (0000ms, 10669ms total)
T024C 2089:708 JLINK_WriteVectorCatch(0x00000001) -- CPU_ReadMem(4 bytes @ 0xE000EDFC)  returns 0x00 (0002ms, 10671ms total)
T024C 2089:710 JLINK_Reset() -- CPU_ReadMem(16 bytes @ 0x20000000) -- CPU_WriteMem(16 bytes @ 0x20000000) -- CPU_ReadMem(4 bytes @ 0xE000EDFC) -- CPU_WriteMem(4 bytes @ 0xE000EDFC) -- CPU_WriteMem(4 bytes @ 0xE0001004) -- CPU_WriteMem(4 bytes @ 0xE000ED0C) -- CPU_ReadMem(4 bytes @ 0xE000EDF0) -- CPU_ReadMem(4 bytes @ 0xE000EDF0) -- CPU_WriteMem(4 bytes @ 0xE000EDFC) -- CPU_WriteMem(16 bytes @ 0x20000000) -- CPU_WriteMem(4 bytes @ 0xE0002000) -- CPU_ReadMem(4 bytes @ 0xE000EDFC)
 -- CPU_ReadMem(4 bytes @ 0xE0001000) (0067ms, 10738ms total)
T024C 2089:777 JLINK_GoEx(MaxEmulInsts = 100, Flags = 0x01) -- CPU_WriteMem(4 bytes @ 0xE0001004) (0003ms, 10741ms total)
T024C 2089:820 JLINK_ExecCommand("ProjectFile = C:\Documents and Settings\a\Desktop\PhyCommander\ATSAM3X8E_FW\ATSAM3X8E_FW\jlink.config", ...)  returns 0x00 (0001ms, 10742ms total)
T024C 2089:821 JLINK_ExecCommand("Device = AT91SAM3X8E", ...)Device "ATSAM3X8E" selected (512 KB flash, 64 KB RAM).  returns 0x00 (0002ms, 10744ms total)
T024C 2089:823 JLINK_TIF_Select(JLINKARM_TIF_JTAG)  returns 0x00 (0000ms, 10744ms total)
T024C 2089:823 JLINK_GetIdData(...) ScanLen=4 NumDevices=1 aId[0]=0x4BA00477 aIrRead[0]=0 aScanLen[0]=0 aScanRead[0]=0 (0000ms, 10744ms total)
T024C 2089:823 JLINK_ConfigJTAG(IRPre = 0, DRPre = 0) (0000ms, 10744ms total)
T024C 2089:823 JLINK_SetSpeed(1000) (0001ms, 10745ms total)
T024C 2089:824 JLINK_Connect() >0x2F8 JTAG>TotalIRLen = 4, IRPrint = 0x01 >0x30 JTAG> >0x210 JTAG> >0x70 JTAG> >0x40 JTAG> >0x40 JTAG> >0x40 JTAG> >0x48 JTAG> >0x78 JTAG> >0x40 JTAG> >0x30 JTAG> >0x40 JTAG> >0x40 JTAG> >0x30 JTAG> >0x40 JTAG> >0x48 JTAG>Found Cortex-M3 r2p0, Little endian. -- CPU_WriteMem(4 bytes @ 0xE0002000) -- CPU_ReadMem(4 bytes @ 0xE000EDF0) -- CPU_ReadMem(4 bytes @ 0xE0002000)FPUnit: 6 code (BP) slots and 2 literal slots -- CPU_ReadMem(4 bytes @ 0xE000EDFC)
 -- CPU_ReadMem(4 bytes @ 0xE0001000) -- CPU_WriteMem(4 bytes @ 0xE0001000) -- CPU_ReadMem(4 bytes @ 0xE00FF010)TPIU fitted. -- CPU_ReadMem(4 bytes @ 0xE00FF014) -- CPU_ReadMem(4 bytes @ 0xE00FF018)  returns 0x00 (0056ms, 10801ms total)
T024C 2089:883 JLINK_WriteVectorCatch(0x00000001) -- CPU is running -- CPU_ReadMem(4 bytes @ 0xE000EDFC) -- CPU is running -- CPU_WriteMem(4 bytes @ 0xE000EDFC)  returns 0x00 (0004ms, 10805ms total)
T024C 2089:887 JLINK_Reset() -- CPU_ReadMem(16 bytes @ 0x20000000) -- CPU_WriteMem(16 bytes @ 0x20000000) -- CPU_ReadMem(4 bytes @ 0xE000EDFC) -- CPU_WriteMem(4 bytes @ 0xE000EDFC) -- CPU_WriteMem(4 bytes @ 0xE000ED0C) -- CPU_ReadMem(4 bytes @ 0xE000EDF0) -- CPU_ReadMem(4 bytes @ 0xE000EDF0) -- CPU_WriteMem(4 bytes @ 0xE000EDFC) -- CPU_WriteMem(16 bytes @ 0x20000000) -- CPU_WriteMem(4 bytes @ 0xE0002000) -- CPU_ReadMem(4 bytes @ 0xE000EDFC) -- CPU_ReadMem(4 bytes @ 0xE0001000) (0074ms, 10879ms total)
T024C 2089:961 JLINK_BeginDownload(Flags = 0x00) (0000ms, 10879ms total)
T024C 2089:961 JLINK_JTAG_GetDeviceID(DeviceIndex = 0)  returns 0x4BA00477 (0000ms, 10879ms total)
T024C 2089:961 JLINK_ReadMemU32(0x400E0940, 0x0001 Items, ...) -- CPU_ReadMem(4 bytes @ 0x400E0940) -- Data:  60 0A 5E 28  returns 0x01 (0002ms, 10881ms total)
T024C 2089:983 JLINK_ReadMem (0x00083400, 0x0100 Bytes, ...) -- CPU_ReadMem(256 bytes @ 0x00083400) -- Updating C cache (256 bytes @ 0x00083400) -- Read from C cache (256 bytes @ 0x00083400) -- Data:  FF FF FF FF FF FF FF FF FF FF FF FF FF FF FF FF ...  returns 0x00 (0057ms, 10938ms total)
T024C 2090:040 JLINK_ReadMem (0x00083900, 0x0100 Bytes, ...) -- CPU_ReadMem(256 bytes @ 0x00083900) -- Updating C cache (256 bytes @ 0x00083900) -- Read from C cache (256 bytes @ 0x00083900) -- Data:  FF FF FF FF FF FF FF FF FF FF FF FF FF FF FF FF ...  returns 0x00 (0016ms, 10954ms total)
T024C 2090:074 JLINK_WriteMem(0x00080000, 0x0100 Bytes, ...) -- Data:  78 27 07 20 B9 31 08 00 B5 31 08 00 B5 31 08 00 ...  returns 0x100 (0006ms, 10960ms total)
T024C 2090:080 JLINK_WriteMem(0x00080100, 0x0100 Bytes, ...) -- Data:  08 BD 04 4A 00 2A FB D0 90 47 F9 E7 58 34 08 00 ...  returns 0x100 (0000ms, 10960ms total)
T024C 2090:080 JLINK_WriteMem(0x00080200, 0x0100 Bytes, ...) -- Data:  0A 70 4F F0 01 00 10 BC 70 47 00 BF 40 F2 D0 53 ...  returns 0x100 (0000ms, 10960ms total)
T024C 2090:080 JLINK_WriteMem(0x00080300, 0x0100 Bytes, ...) -- Data:  70 47 4F F0 00 00 70 47 4F F0 00 00 70 47 4F F0 ...  returns 0x100 (0000ms, 10960ms total)
T024C 2090:080 JLINK_WriteMem(0x00080400, 0x0100 Bytes, ...) -- Data:  01 02 1A 70 BF F3 5F 8F 62 B6 71 E0 40 F2 74 63 ...  returns 0x100 (0000ms, 10960ms total)
T024C 2090:080 JLINK_WriteMem(0x00080500, 0x0100 Bytes, ...) -- Data:  08 03 98 47 08 BD 00 BF 08 B5 E8 B9 40 F2 44 53 ...  returns 0x100 (0001ms, 10961ms total)
T024C 2090:081 JLINK_WriteMem(0x00080600, 0x0100 Bytes, ...) -- Data:  07 01 31 F8 14 30 93 42 0E D9 00 28 4A D0 40 F2 ...  returns 0x100 (0000ms, 10961ms total)
T024C 2090:081 JLINK_WriteMem(0x00080700, 0x0100 Bytes, ...) -- Data:  00 00 40 F2 34 51 C2 F2 07 01 08 70 40 F2 B5 53 ...  returns 0x100 (0000ms, 10961ms total)
T024C 2090:081 JLINK_WriteMem(0x00080800, 0x0100 Bytes, ...) -- Data:  28 18 82 42 11 D9 41 78 04 29 11 D0 A1 42 05 D1 ...  returns 0x100 (0000ms, 10961ms total)
T024C 2090:081 JLINK_WriteMem(0x00080900, 0x0100 Bytes, ...) -- Data:  4F F0 05 06 40 F2 ED 75 C0 F2 08 05 42 F2 C5 57 ...  returns 0x100 (0000ms, 10961ms total)
T024C 2090:081 JLINK_WriteMem(0x00080A00, 0x0100 Bytes, ...) -- Data:  51 16 C0 F2 08 06 40 F2 84 65 C2 F2 07 05 20 46 ...  returns 0x100 (0000ms, 10961ms total)
T024C 2090:081 JLINK_WriteMem(0x00080B00, 0x0100 Bytes, ...) -- Data:  40 F2 60 70 C2 F2 07 00 41 88 4F EA 11 23 02 2B ...  returns 0x100 (0000ms, 10961ms total)
T024C 2090:081 JLINK_WriteMem(0x00080C00, 0x0100 Bytes, ...) -- Data:  4F F0 00 00 B8 E1 4F F0 01 00 B5 E1 01 2A 0D D1 ...  returns 0x100 (0000ms, 10961ms total)
T024C 2090:081 JLINK_WriteMem(0x00080D00, 0x0100 Bytes, ...) -- Data:  39 01 BA 00 09 00 BA 00 BA 00 BA 00 54 00 40 F2 ...  returns 0x100 (0000ms, 10961ms total)
T024C 2090:081 JLINK_WriteMem(0x00080E00, 0x0100 Bytes, ...) -- Data:  28 02 C2 F2 07 02 52 68 02 EB C3 00 40 F2 84 61 ...  returns 0x100 (0000ms, 10961ms total)
T024C 2090:081 JLINK_WriteMem(0x00080F00, 0x0100 Bytes, ...) -- Data:  40 F2 60 73 C2 F2 07 03 18 79 42 F2 CD 31 C0 F2 ...  returns 0x100 (0000ms, 10961ms total)
T024C 2090:081 JLINK_WriteMem(0x00081000, 0x0100 Bytes, ...) -- Data:  C2 F2 07 02 11 78 31 B3 40 F2 84 60 C2 F2 07 00 ...  returns 0x100 (0000ms, 10961ms total)
T024C 2090:081 JLINK_WriteMem(0x00081100, 0x0100 Bytes, ...) -- Data:  C2 F2 07 02 90 78 00 F1 FF 30 90 70 49 BB 40 F2 ...  returns 0x100 (0000ms, 10961ms total)
T024C 2090:081 JLINK_WriteMem(0x00081200, 0x0100 Bytes, ...) -- Data:  70 47 00 BF 40 F2 E0 63 C2 F2 07 03 4F F0 03 02 ...  returns 0x100 (0000ms, 10961ms total)
T024C 2090:081 JLINK_WriteMem(0x00081300, 0x0100 Bytes, ...) -- Data:  11 80 40 F2 60 72 C2 F2 07 02 D0 88 88 42 05 D0 ...  returns 0x100 (0000ms, 10961ms total)
T024C 2090:081 JLINK_WriteMem(0x00081400, 0x0100 Bytes, ...) -- Data:  0A 68 12 F0 02 0F 01 D1 9C B9 35 E0 4D B1 40 F2 ...  returns 0x100 (0000ms, 10961ms total)
T024C 2090:081 JLINK_WriteMem(0x00081500, 0x0100 Bytes, ...) -- Data:  08 B5 00 F0 0F 02 02 F1 FF 30 00 EB 40 01 40 F2 ...  returns 0x100 (0000ms, 10961ms total)
T024C 2090:081 JLINK_WriteMem(0x00081600, 0x0100 Bytes, ...) -- Data:  1D D1 46 F0 21 06 86 60 DA 68 50 19 D8 60 1D 61 ...  returns 0x100 (0000ms, 10961ms total)
T024C 2090:081 JLINK_WriteMem(0x00081700, 0x0100 Bytes, ...) -- Data:  08 01 88 47 4F F4 40 40 C4 F2 0A 00 D0 F8 00 58 ...  returns 0x100 (0000ms, 10961ms total)
T024C 2090:081 JLINK_WriteMem(0x00081800, 0x0100 Bytes, ...) -- Data:  4F F4 40 40 C4 F2 0A 00 4F F0 04 02 82 60 D0 F8 ...  returns 0x100 (0000ms, 10961ms total)
T024C 2090:081 JLINK_WriteMem(0x00081900, 0x0100 Bytes, ...) -- Data:  4F F0 03 03 C2 F2 18 03 19 78 C1 70 4F F0 04 02 ...  returns 0x100 (0000ms, 10961ms total)
T024C 2090:081 JLINK_WriteMem(0x00081A00, 0x0100 Bytes, ...) -- Data:  EF F3 10 81 72 B6 BF F3 5F 8F 40 F2 E4 03 C2 F2 ...  returns 0x100 (0000ms, 10961ms total)
T024C 2090:081 JLINK_WriteMem(0x00081B00, 0x0100 Bytes, ...) -- Data:  13 F8 01 0B 02 F8 01 0B D8 B2 A0 42 C0 F0 43 83 ...  returns 0x100 (0000ms, 10961ms total)
T024C 2090:081 JLINK_WriteMem(0x00081C00, 0x0100 Bytes, ...) -- Data:  1A 60 EF F3 10 81 72 B6 BF F3 5F 8F 99 4B 4F F0 ...  returns 0x100 (0000ms, 10961ms total)
T024C 2090:081 JLINK_WriteMem(0x00081D00, 0x0100 Bytes, ...) -- Data:  0D E0 4F F0 01 00 4F F0 00 74 40 F2 94 62 C2 F2 ...  returns 0x100 (0000ms, 10961ms total)
T024C 2090:081 JLINK_WriteMem(0x00081E00, 0x0100 Bytes, ...) -- Data:  00 41 1D 4A 0A E0 4F F0 04 03 4F F4 00 51 1C 4A ...  returns 0x100 (0000ms, 10961ms total)
T024C 2090:081 JLINK_WriteMem(0x00081F00, 0x0100 Bytes, ...) -- Data:  21 F0 1C 02 42 F0 30 03 03 60 01 68 41 F0 02 02 ...  returns 0x100 (0000ms, 10961ms total)
T024C 2090:081 JLINK_WriteMem(0x00082000, 0x0100 Bytes, ...) -- Data:  40 43 C4 F2 0A 03 03 E0 5A 68 12 F0 01 0F 04 D1 ...  returns 0x100 (0000ms, 10961ms total)
T024C 2090:081 JLINK_WriteMem(0x00082100, 0x0100 Bytes, ...) -- Data:  01 68 11 F0 01 0F E6 D0 45 E6 4F F4 40 43 C4 F2 ...  returns 0x100 (0000ms, 10961ms total)
T024C 2090:081 JLINK_WriteMem(0x00082200, 0x0100 Bytes, ...) -- Data:  CA 00 70 47 4F F4 40 43 C4 F2 0A 03 18 6A 4F EA ...  returns 0x100 (0000ms, 10961ms total)
T024C 2090:081 JLINK_WriteMem(0x00082300, 0x0100 Bytes, ...) -- Data:  0C 70 10 F0 80 0F 27 D0 4C F2 30 10 C4 F2 0A 00 ...  returns 0x100 (0000ms, 10961ms total)
T024C 2090:081 JLINK_WriteMem(0x00082400, 0x0100 Bytes, ...) -- Data:  20 21 C4 F2 0A 01 4F F4 80 52 41 F8 20 20 02 FA ...  returns 0x100 (0001ms, 10962ms total)
T024C 2090:082 JLINK_WriteMem(0x00082500, 0x0100 Bytes, ...) -- Data:  07 04 04 EB C6 04 25 7D 05 F0 04 06 F6 B2 00 2E ...  returns 0x100 (0000ms, 10962ms total)
T024C 2090:082 JLINK_WriteMem(0x00082600, 0x0100 Bytes, ...) -- Data:  4F F0 01 05 01 E0 4F F0 00 05 4F F4 41 47 C4 F2 ...  returns 0x100 (0000ms, 10962ms total)
T024C 2090:082 JLINK_WriteMem(0x00082700, 0x0100 Bytes, ...) -- Data:  43 0C 09 EB CC 05 29 7D 01 F0 01 02 03 92 6F F3 ...  returns 0x100 (0000ms, 10962ms total)
T024C 2090:082 JLINK_WriteMem(0x00082800, 0x0100 Bytes, ...) -- Data:  4C F2 30 1A C4 F2 0A 0A C4 F1 03 0B 0B F0 01 0B ...  returns 0x100 (0000ms, 10962ms total)
T024C 2090:082 JLINK_WriteMem(0x00082900, 0x0100 Bytes, ...) -- Data:  0B FA 04 FC 4C EA 00 00 C8 F8 1C 00 53 44 18 68 ...  returns 0x100 (0000ms, 10962ms total)
T024C 2090:082 JLINK_WriteMem(0x00082A00, 0x0100 Bytes, ...) -- Data:  28 B9 EE E6 20 46 EA E7 44 F0 80 00 E7 E7 04 F1 ...  returns 0x100 (0000ms, 10962ms total)
T024C 2090:082 JLINK_WriteMem(0x00082B00, 0x0100 Bytes, ...) -- Data:  4C F2 F0 12 C4 F2 0A 02 9C 18 4F F4 00 55 4C F2 ...  returns 0x100 (0000ms, 10962ms total)
T024C 2090:082 JLINK_WriteMem(0x00082C00, 0x0100 Bytes, ...) -- Data:  A0 47 4F F0 66 00 4F F0 60 51 A0 47 4F F0 07 00 ...  returns 0x100 (0000ms, 10962ms total)
T024C 2090:082 JLINK_WriteMem(0x00082D00, 0x0100 Bytes, ...) -- Data:  29 46 A0 47 4F F4 60 60 C4 F2 0E 00 4F F4 40 71 ...  returns 0x100 (0000ms, 10962ms total)
T024C 2090:082 JLINK_WriteMem(0x00082E00, 0x0100 Bytes, ...) -- Data:  70 B5 04 46 0D 46 16 46 42 F6 C1 53 C0 F2 08 03 ...  returns 0x100 (0000ms, 10962ms total)
T024C 2090:082 JLINK_WriteMem(0x00082F00, 0x0100 Bytes, ...) -- Data:  98 47 20 46 44 E0 00 F0 1F 00 4F F0 01 04 04 FA ...  returns 0x100 (0000ms, 10962ms total)
T024C 2090:082 JLINK_WriteMem(0x00083000, 0x0100 Bytes, ...) -- Data:  31 46 05 F0 01 02 42 F6 71 53 C0 F2 08 03 98 47 ...  returns 0x100 (0000ms, 10962ms total)
T024C 2090:082 JLINK_WriteMem(0x00083100, 0x0100 Bytes, ...) -- Data:  08 BD 00 BF 08 B5 4F F4 A0 50 C4 F2 0E 00 4F F0 ...  returns 0x100 (0000ms, 10962ms total)
T024C 2090:082 JLINK_WriteMem(0x00083200, 0x0100 Bytes, ...) -- Data:  04 00 C5 F3 80 04 5D 58 9D 50 03 F1 04 03 83 42 ...  returns 0x100 (0000ms, 10962ms total)
T024C 2090:082 JLINK_WriteMem(0x00083300, 0x0100 Bytes, ...) -- Data:  48 01 91 46 18 B9 04 F5 A6 70 C4 F8 48 01 41 68 ...  returns 0x100 (0000ms, 10962ms total)
T024C 2090:082 JLINK_WriteMem(0x00083400, 0x0100 Bytes, ...) -- Data:  48 34 08 00 02 4B 13 B1 02 48 00 F0 05 B8 70 47 ...  returns 0x100 (0000ms, 10962ms total)
T024C 2090:082 JLINK_WriteMem(0x00083500, 0x0100 Bytes, ...) -- Data:  72 00 00 00 45 70 68 65 6D 65 72 61 6C 62 69 74 ...  returns 0x100 (0000ms, 10962ms total)
T024C 2090:082 JLINK_WriteMem(0x00083600, 0x0100 Bytes, ...) -- Data:  EC DE 05 00 0B 00 00 00 00 00 00 00 00 00 00 00 ...  returns 0x100 (0000ms, 10962ms total)
T024C 2090:082 JLINK_WriteMem(0x00083700, 0x0100 Bytes, ...) -- Data:  00 00 00 00 00 00 00 00 00 00 00 00 00 00 00 00 ...  returns 0x100 (0000ms, 10962ms total)
T024C 2090:082 JLINK_WriteMem(0x00083800, 0x0100 Bytes, ...) -- Data:  00 00 00 00 00 00 00 00 00 00 00 00 00 00 00 00 ...  returns 0x100 (0001ms, 10963ms total)
T024C 2090:083 JLINK_WriteMem(0x00083900, 0x0100 Bytes, ...) -- Data:  00 00 00 00 00 00 00 00 00 00 00 00 00 00 00 00 ...  returns 0x100 (0000ms, 10963ms total)
T024C 2090:103 JLINK_EndDownload() -- -------------------------------------- -- Start of determining dirty areas -- End of determining dirty areas -- Start of preparing flash programming -- Calculating RAM usage -- RAM usage = 2860 Bytes -- Preserving registers -- Preparing memory -- Determining CPU clock frequency -- CPU clock frequency: 3669 kHz -- CPU frequency = 3669 kHz -- Preparing target -- Downloading RAMCode -- Using alternate TurboMode RAMCode -- Checking target RAM -- Preparing RAMCode
 -- End of preparing flash programmingCPU is running at low speed (3669 kHz). -- CPU is running at 3669 kHz. -- Start of comparing flash -- CRC check was estimated as fastest method -- Comparing range 0x80000 - 0x839FF (58 Sectors, 14 KB), using multi-block CRC calculation -- CRC does not match for sectors 0-57 -- End of comparing flash -- Start of erasing sectors -- End of erasing sectors -- Start of flash programming -- Programming range 0x00080000 - 0x00081FFF ( 32 Sectors, 8 KB)
 -- Programming range 0x00082000 - 0x000839FF ( 26 Sectors, 6 KB) -- End of flash programming -- Flash programming performed for 1 range (14848 bytes) -- 0x80000 - 0x839FF (058 Sectors, 14 KB) -- Start of verifying flash -- Checksum calculation was estimated as fastest method -- End of verifying flash -- Start of restoring -- Restore RAMCode -- Restore content of target memory -- Restore target -- Restore memory -- Restore content of registers -- End of restoring
 -- Total time needed: 0.996s (Prepare: 0.229s, Compare: 0.024s, Erase: 0.000s, Program: 0.712s, Verify: 0.006s, Restore: 0.024s)  returns 0x3A00 (0998ms, 11961ms total)
